time	V(n003)	-I(L1)
0.000000000000000e+000	0.000000e+000	-0.000000e+000
9.999999960041972e-012	1.350000e-012	1.075000e-007
1.999999992008394e-011	3.533333e-012	2.100000e-007
9.363999962583305e-008	5.504559e-005	9.358823e-004
1.872599992517460e-007	2.191071e-004	1.870412e-003
2.808799988776590e-007	4.921846e-004	2.803799e-003
3.744999985035720e-007	8.742781e-004	3.736044e-003
4.681199981294849e-007	1.365387e-003	4.667146e-003
5.617399977553980e-007	1.965513e-003	5.597105e-003
6.553599973813107e-007	2.674654e-003	6.525922e-003
1.310719994762621e-006	1.016056e-002	1.299918e-002
2.310719994762621e-006	2.890347e-002	2.279093e-002
3.310719994762621e-006	5.653487e-002	3.247187e-002
4.310719994762621e-006	9.378291e-002	4.202420e-002
5.310719994762620e-006	1.405149e-001	5.143968e-002
6.310719994762620e-006	1.965899e-001	6.071033e-002
7.310719994762620e-006	2.618592e-001	6.982834e-002
8.310719994762620e-006	3.361664e-001	7.878618e-002
9.310719994762621e-006	4.193478e-001	8.757652e-002
1.031071999476262e-005	5.112322e-001	9.619230e-002
1.131071999476262e-005	6.116417e-001	1.046267e-001
1.231071999476262e-005	7.203916e-001	1.128730e-001
1.331071999476262e-005	8.372906e-001	1.209251e-001
1.431071999476262e-005	9.621416e-001	1.287767e-001
1.531071999476262e-005	1.094741e+000	1.364222e-001
1.631071999476262e-005	1.234880e+000	1.438558e-001
1.731071999476262e-005	1.382344e+000	1.510724e-001
1.931071999476263e-005	1.698365e+000	1.648346e-001
2.131071999476263e-005	2.040989e+000	1.776719e-001
2.331071999476263e-005	2.408334e+000	1.895517e-001
2.631071999476263e-005	3.001438e+000	2.055161e-001
2.931071999476263e-005	3.639010e+000	2.191882e-001
3.173929142333406e-005	4.192381e+000	2.285247e-001
3.416786285190548e-005	4.757124e+000	2.363128e-001
3.659643428047690e-005	5.333239e+000	2.425526e-001
3.902500570904833e-005	5.920727e+000	2.472440e-001
4.145357713761975e-005	6.519587e+000	2.503870e-001
4.388214856619117e-005	7.129820e+000	2.519817e-001
4.631071999476259e-005	7.751424e+000	2.520280e-001
4.959643428047687e-005	8.595137e+000	2.493945e-001
5.288214856619115e-005	9.408178e+000	2.445773e-001
5.616786285190542e-005	1.019055e+001	2.375766e-001
5.945357713761970e-005	1.094225e+001	2.283922e-001
6.273929142333398e-005	1.166328e+001	2.170241e-001
6.602500570904826e-005	1.235363e+001	2.034725e-001
6.931071999476253e-005	1.301332e+001	1.877372e-001
7.173929142333395e-005	1.345773e+001	1.752295e-001
7.416786285190537e-005	1.386798e+001	1.622304e-001
7.659643428047680e-005	1.424408e+001	1.487400e-001
7.902500570904822e-005	1.458602e+001	1.347583e-001
8.145357713761965e-005	1.489381e+001	1.202852e-001
8.388214856619106e-005	1.516744e+001	1.053207e-001
8.631071999476248e-005	1.540693e+001	8.986488e-002
8.788214856619104e-005	1.554030e+001	7.986681e-002
8.945357713761961e-005	1.565803e+001	6.988943e-002
9.102500570904819e-005	1.576011e+001	5.993274e-002
9.259643428047675e-005	1.584655e+001	4.999673e-002
9.416786285190532e-005	1.591734e+001	4.008142e-002
9.573929142333388e-005	1.597248e+001	3.018679e-002
9.731071999476245e-005	1.601198e+001	2.031285e-002
9.931071999476244e-005	1.604025e+001	7.974870e-003
1.003107199947624e-004	1.604517e+001	1.882866e-003
1.013107199947624e-004	1.604404e+001	-4.150403e-003
1.023107199947624e-004	1.603691e+001	-1.011952e-002
1.043107199947624e-004	1.600491e+001	-2.184422e-002
1.063107199947624e-004	1.594977e+001	-3.325032e-002
1.093107199947624e-004	1.582518e+001	-4.967773e-002
1.123107199947624e-004	1.565268e+001	-6.517964e-002
1.153107199947624e-004	1.543520e+001	-7.964608e-002
1.183107199947624e-004	1.517600e+001	-9.297951e-002
1.213107199947624e-004	1.487861e+001	-1.050953e-001
1.243107199947624e-004	1.454679e+001	-1.159221e-001
1.273107199947624e-004	1.418450e+001	-1.254020e-001
1.313107199947624e-004	1.363600e+001	-1.357809e-001
1.353107199947624e-004	1.307597e+001	-1.436772e-001
1.393107199947623e-004	1.250440e+001	-1.490910e-001
1.433107199947623e-004	1.192130e+001	-1.520222e-001
1.473107199947623e-004	1.132665e+001	-1.524709e-001
1.513107199947623e-004	1.072047e+001	-1.504372e-001
1.553107199947623e-004	1.010275e+001	-1.459208e-001
1.583107199947623e-004	9.664732e+000	-1.410357e-001
1.613107199947623e-004	9.249593e+000	-1.352643e-001
1.643107199947623e-004	8.857333e+000	-1.286067e-001
1.673107199947623e-004	8.487952e+000	-1.210629e-001
1.703107199947623e-004	8.141452e+000	-1.126328e-001
1.733107199947623e-004	7.817831e+000	-1.033164e-001
1.763107199947622e-004	7.517089e+000	-9.311386e-002
1.784535771376194e-004	7.324697e+000	-8.557078e-002
1.805964342804765e-004	7.149391e+000	-7.789562e-002
1.827392914233337e-004	6.991170e+000	-7.008837e-002
1.848821485661908e-004	6.850035e+000	-6.214905e-002
1.870250057090479e-004	6.725985e+000	-5.407764e-002
1.891678628519051e-004	6.619020e+000	-4.587415e-002
1.913107199947622e-004	6.529140e+000	-3.753857e-002
1.925964342804765e-004	6.484137e+000	-3.257647e-002
1.938821485661908e-004	6.445409e+000	-2.764352e-002
1.951678628519051e-004	6.412956e+000	-2.273972e-002
1.964535771376193e-004	6.386780e+000	-1.786505e-002
1.977392914233336e-004	6.366879e+000	-1.301954e-002
1.990250057090479e-004	6.353253e+000	-8.203171e-003
2.003107199947622e-004	6.345903e+000	-3.415949e-003
2.013107199947622e-004	6.344322e+000	2.547459e-004
2.023107199947622e-004	6.346394e+000	3.888668e-003
2.033107199947622e-004	6.352080e+000	7.482570e-003
2.053107199947622e-004	6.374123e+000	1.453767e-002
2.073107199947622e-004	6.410083e+000	2.139555e-002
2.103107199947621e-004	6.489188e+000	3.126210e-002
2.133107199947621e-004	6.597054e+000	4.056015e-002
2.163107199947621e-004	6.731879e+000	4.922415e-002
2.193107199947621e-004	6.891669e+000	5.719608e-002
2.223107199947621e-004	7.074272e+000	6.442578e-002
2.253107199947621e-004	7.277396e+000	7.087114e-002
2.294535771376193e-004	7.604145e+000	7.839567e-002
2.335964342804765e-004	7.941815e+000	8.429722e-002
2.377392914233336e-004	8.290405e+000	8.857579e-002
2.418821485661908e-004	8.649917e+000	9.123138e-002
2.460250057090480e-004	9.020349e+000	9.226398e-002
2.501678628519051e-004	9.401702e+000	9.167359e-002
2.543107199947623e-004	9.793976e+000	8.946022e-002
2.573107199947624e-004	1.006332e+001	8.689405e-002
2.603107199947625e-004	1.031971e+001	8.376136e-002
2.633107199947625e-004	1.056317e+001	8.006215e-002
2.663107199947626e-004	1.079368e+001	7.579642e-002
2.693107199947627e-004	1.101125e+001	7.096417e-002
2.723107199947628e-004	1.121588e+001	6.556539e-002
2.753107199947628e-004	1.140756e+001	5.960010e-002
2.774535771376200e-004	1.153119e+001	5.516022e-002
2.795964342804772e-004	1.164463e+001	5.062241e-002
2.817392914233344e-004	1.174788e+001	4.598668e-002
2.838821485661916e-004	1.184095e+001	4.125302e-002
2.860250057090488e-004	1.192383e+001	3.642144e-002
2.881678628519060e-004	1.199651e+001	3.149194e-002
2.903107199947632e-004	1.205902e+001	2.646450e-002
2.917392914233346e-004	1.209440e+001	2.312672e-002
2.931678628519061e-004	1.212508e+001	1.980563e-002
2.945964342804776e-004	1.215106e+001	1.650122e-002
2.960250057090491e-004	1.217233e+001	1.321351e-002
2.974535771376205e-004	1.218890e+001	9.942485e-003
2.988821485661920e-004	1.220076e+001	6.688152e-003
3.003107199947634e-004	1.220792e+001	3.450508e-003
3.013107199947635e-004	1.221025e+001	1.218077e-003
3.023107199947635e-004	1.221037e+001	-9.933549e-004
3.033107199947635e-004	1.220828e+001	-3.181798e-003
3.043107199947635e-004	1.220401e+001	-5.345304e-003
3.063107199947636e-004	1.218906e+001	-9.589933e-003
3.083107199947636e-004	1.216575e+001	-1.371256e-002
3.113107199947637e-004	1.211565e+001	-1.963757e-002
3.143107199947638e-004	1.204829e+001	-2.521354e-002
3.173107199947639e-004	1.196478e+001	-3.040138e-002
3.203107199947639e-004	1.186633e+001	-3.516662e-002
3.233107199947640e-004	1.175425e+001	-3.947953e-002
3.263107199947641e-004	1.162995e+001	-4.331527e-002
3.311678628519071e-004	1.139019e+001	-4.840043e-002
3.360250057090500e-004	1.114515e+001	-5.216402e-002
3.408821485661930e-004	1.089484e+001	-5.460606e-002
3.457392914233360e-004	1.063925e+001	-5.572653e-002
3.505964342804789e-004	1.037838e+001	-5.552544e-002
3.554535771376219e-004	1.011224e+001	-5.400279e-002
3.603107199947649e-004	9.840816e+000	-5.115858e-002
3.631678628519078e-004	9.695613e+000	-4.898722e-002
3.660250057090508e-004	9.558911e+000	-4.655704e-002
3.688821485661937e-004	9.430710e+000	-4.386805e-002
3.717392914233366e-004	9.311009e+000	-4.092024e-002
3.745964342804795e-004	9.199809e+000	-3.771361e-002
3.774535771376225e-004	9.097111e+000	-3.424818e-002
3.803107199947654e-004	9.002913e+000	-3.052392e-002
3.823107199947654e-004	8.944324e+000	-2.785720e-002
3.843107199947655e-004	8.891262e+000	-2.516163e-002
3.863107199947655e-004	8.843726e+000	-2.243721e-002
3.883107199947656e-004	8.801717e+000	-1.968394e-002
3.903107199947656e-004	8.765234e+000	-1.690182e-002
3.923107199947657e-004	8.734277e+000	-1.409086e-002
3.943107199947657e-004	8.708847e+000	-1.125105e-002
3.953107199947658e-004	8.698314e+000	-9.845813e-003
3.963107199947658e-004	8.689165e+000	-8.448042e-003
3.973107199947658e-004	8.681400e+000	-7.057736e-003
3.983107199947658e-004	8.675019e+000	-5.674895e-003
3.993107199947658e-004	8.670022e+000	-4.299519e-003
4.003107199947659e-004	8.666408e+000	-2.931607e-003
4.013107199947659e-004	8.664178e+000	-1.571160e-003
4.023107199947659e-004	8.663280e+000	-2.259031e-004
4.033107199947659e-004	8.663720e+000	1.106195e-003
4.043107199947660e-004	8.665485e+000	2.423940e-003
4.063107199947660e-004	8.672930e+000	5.011725e-003
4.083107199947661e-004	8.685479e+000	7.528438e-003
4.113107199947661e-004	8.713542e+000	1.115166e-002
4.143107199947662e-004	8.752172e+000	1.456904e-002
4.173107199947663e-004	8.800713e+000	1.775637e-002
4.203107199947664e-004	8.858444e+000	2.069223e-002
4.233107199947664e-004	8.924582e+000	2.335803e-002
4.263107199947665e-004	8.998290e+000	2.573814e-002
4.311678628519095e-004	9.141337e+000	2.892169e-002
4.360250057090525e-004	9.288070e+000	3.130327e-002
4.408821485661955e-004	9.438489e+000	3.288287e-002
4.457392914233384e-004	9.592594e+000	3.366049e-002
4.505964342804814e-004	9.750385e+000	3.363614e-002
4.554535771376243e-004	9.911862e+000	3.280982e-002
4.603107199947673e-004	1.007702e+001	3.118152e-002
4.631678628519103e-004	1.016563e+001	2.991513e-002
4.660250057090532e-004	1.024919e+001	2.848810e-002
4.688821485661961e-004	1.032771e+001	2.690043e-002
4.717392914233390e-004	1.040118e+001	2.515213e-002
4.745964342804819e-004	1.046962e+001	2.324318e-002
4.774535771376249e-004	1.053301e+001	2.117360e-002
4.803107199947678e-004	1.059136e+001	1.894337e-002
4.823107199947679e-004	1.062778e+001	1.734311e-002
4.843107199947679e-004	1.066087e+001	1.572322e-002
4.863107199947680e-004	1.069064e+001	1.408370e-002
4.883107199947680e-004	1.071707e+001	1.242456e-002
4.903107199947680e-004	1.074017e+001	1.074580e-002
4.923107199947681e-004	1.075994e+001	9.047408e-003
4.943107199947681e-004	1.077638e+001	7.329394e-003
4.954535771376253e-004	1.078419e+001	6.356394e-003
4.965964342804824e-004	1.079090e+001	5.389160e-003
4.977392914233396e-004	1.079652e+001	4.427692e-003
4.988821485661968e-004	1.080105e+001	3.471992e-003
5.000250057090540e-004	1.080448e+001	2.522057e-003
5.011678628519111e-004	1.080682e+001	1.577890e-003
5.023107199947683e-004	1.080807e+001	6.394892e-004
5.033107199947683e-004	1.080831e+001	-1.710426e-004
5.043107199947683e-004	1.080773e+001	-9.733404e-004
5.053107199947684e-004	1.080636e+001	-1.766688e-003
5.073107199947684e-004	1.080127e+001	-3.323749e-003
5.093107199947685e-004	1.079310e+001	-4.836826e-003
5.123107199947685e-004	1.077530e+001	-7.012854e-003
5.153107199947686e-004	1.075116e+001	-9.062459e-003
5.183107199947687e-004	1.072108e+001	-1.097122e-002
5.213107199947688e-004	1.068549e+001	-1.272639e-002
5.243107199947688e-004	1.064489e+001	-1.431696e-002
5.273107199947689e-004	1.059978e+001	-1.573370e-002
5.321678628519118e-004	1.051255e+001	-1.761847e-002
5.370250057090549e-004	1.042328e+001	-1.901932e-002
5.418821485661978e-004	1.033197e+001	-1.993624e-002
5.467392914233408e-004	1.023861e+001	-2.036924e-002
5.515964342804838e-004	1.014320e+001	-2.031832e-002
5.564535771376268e-004	1.004575e+001	-1.978348e-002
5.613107199947697e-004	9.946262e+000	-1.876471e-002
5.641678628519126e-004	9.892979e+000	-1.798154e-002
5.670250057090556e-004	9.842782e+000	-1.710276e-002
5.698821485661985e-004	9.795670e+000	-1.612838e-002
5.727392914233415e-004	9.751644e+000	-1.505839e-002
5.755964342804844e-004	9.710704e+000	-1.389280e-002
5.784535771376273e-004	9.672850e+000	-1.263161e-002
5.813107199947702e-004	9.638082e+000	-1.127481e-002
5.833107199947703e-004	9.616426e+000	-1.030251e-002
5.853107199947703e-004	9.596788e+000	-9.319155e-003
5.873107199947704e-004	9.579168e+000	-8.324743e-003
5.893107199947704e-004	9.563567e+000	-7.319275e-003
5.913107199947705e-004	9.549984e+000	-6.302751e-003
5.933107199947705e-004	9.538420e+000	-5.275172e-003
5.953107199947706e-004	9.528873e+000	-4.236536e-003
5.964535771376278e-004	9.524376e+000	-3.648649e-003
5.975964342804849e-004	9.520539e+000	-3.064486e-003
5.987392914233421e-004	9.517361e+000	-2.484048e-003
5.998821485661992e-004	9.514843e+000	-1.907335e-003
6.010250057090564e-004	9.512985e+000	-1.334346e-003
6.021678628519135e-004	9.511787e+000	-7.650821e-004
6.033107199947708e-004	9.511249e+000	-1.995430e-004
6.043107199947708e-004	9.511293e+000	2.887404e-004
6.053107199947708e-004	9.511824e+000	7.718788e-004
6.073107199947709e-004	9.514319e+000	1.721012e-003
6.093107199947709e-004	9.518688e+000	2.644542e-003
6.123107199947710e-004	9.528633e+000	3.974990e-003
6.153107199947710e-004	9.542459e+000	5.230911e-003
6.183107199947711e-004	9.559930e+000	6.403382e-003
6.213107199947712e-004	9.580783e+000	7.484483e-003
6.243107199947713e-004	9.604733e+000	8.467337e-003
6.273107199947713e-004	9.631477e+000	9.346141e-003
6.303107199947714e-004	9.660695e+000	1.011619e-002
6.348821485662001e-004	9.712226e+000	1.105699e-002
6.394535771376288e-004	9.764490e+000	1.174012e-002
6.440250057090575e-004	9.817487e+000	1.216558e-002
6.485964342804861e-004	9.871217e+000	1.233337e-002
6.531678628519148e-004	9.925680e+000	1.224349e-002
6.577392914233435e-004	9.980875e+000	1.189594e-002
6.623107199947722e-004	1.003680e+001	1.129071e-002
6.651678628519151e-004	1.006884e+001	1.080672e-002
6.680250057090581e-004	1.009899e+001	1.026585e-002
6.708821485662009e-004	1.012725e+001	9.668100e-003
6.737392914233439e-004	1.015363e+001	9.013471e-003
6.765964342804868e-004	1.017812e+001	8.301963e-003
6.794535771376298e-004	1.020071e+001	7.533576e-003
6.823107199947727e-004	1.022143e+001	6.708311e-003
6.843107199947727e-004	1.023430e+001	6.117664e-003
6.863107199947728e-004	1.024595e+001	5.520820e-003
6.883107199947728e-004	1.025637e+001	4.917781e-003
6.903107199947729e-004	1.026557e+001	4.308546e-003
6.923107199947729e-004	1.027355e+001	3.693115e-003
6.943107199947730e-004	1.028031e+001	3.071487e-003
6.963107199947730e-004	1.028584e+001	2.443664e-003
6.973107199947730e-004	1.028813e+001	2.133060e-003
6.983107199947731e-004	1.029011e+001	1.824148e-003
6.993107199947731e-004	1.029178e+001	1.516928e-003
7.003107199947731e-004	1.029315e+001	1.211399e-003
7.013107199947731e-004	1.029421e+001	9.075613e-004
7.023107199947732e-004	1.029497e+001	6.054156e-004
7.033107199947732e-004	1.029542e+001	3.049617e-004
7.043107199947732e-004	1.029557e+001	7.903423e-006
7.053107199947732e-004	1.029543e+001	-2.862073e-004
7.063107199947733e-004	1.029500e+001	-5.771074e-004
7.083107199947733e-004	1.029327e+001	-1.148251e-003
7.103107199947734e-004	1.029042e+001	-1.703542e-003
7.133107199947734e-004	1.028410e+001	-2.502663e-003
7.163107199947735e-004	1.027545e+001	-3.255999e-003
7.193107199947736e-004	1.026462e+001	-3.958231e-003
7.223107199947736e-004	1.025176e+001	-4.604649e-003
7.253107199947737e-004	1.023705e+001	-5.191176e-003
7.283107199947738e-004	1.022068e+001	-5.714385e-003
7.331678628519167e-004	1.018895e+001	-6.412815e-003
7.380250057090598e-004	1.015643e+001	-6.934054e-003
7.428821485662027e-004	1.012312e+001	-7.278104e-003
7.477392914233457e-004	1.008903e+001	-7.444963e-003
7.525964342804887e-004	1.005414e+001	-7.434631e-003
7.574535771376317e-004	1.001846e+001	-7.247109e-003
7.623107199947746e-004	9.981990e+000	-6.882397e-003
7.651678628519175e-004	9.962439e+000	-6.599999e-003
7.680250057090605e-004	9.944007e+000	-6.282291e-003
7.708821485662034e-004	9.926696e+000	-5.929271e-003
7.737392914233464e-004	9.910504e+000	-5.540942e-003
7.765964342804892e-004	9.895432e+000	-5.117301e-003
7.794535771376322e-004	9.881480e+000	-4.658351e-003
7.823107199947751e-004	9.868649e+000	-4.164089e-003
7.843107199947752e-004	9.860645e+000	-3.809610e-003
7.863107199947752e-004	9.853379e+000	-3.450902e-003
7.883107199947753e-004	9.846850e+000	-3.087966e-003
7.903107199947753e-004	9.841058e+000	-2.720801e-003
7.923107199947753e-004	9.836002e+000	-2.349408e-003
7.943107199947754e-004	9.831684e+000	-1.973786e-003
7.963107199947754e-004	9.828102e+000	-1.593936e-003
7.974535771376327e-004	9.826406e+000	-1.378854e-003
7.985964342804898e-004	9.824952e+000	-1.165080e-003
7.997392914233470e-004	9.823740e+000	-9.526133e-004
8.008821485662041e-004	9.822769e+000	-7.414543e-004
8.020250057090613e-004	9.822039e+000	-5.316030e-004
8.031678628519184e-004	9.821552e+000	-3.230592e-004
8.043107199947756e-004	9.821305e+000	-1.158229e-004
8.053107199947757e-004	9.821280e+000	6.314820e-005
8.063107199947757e-004	9.821430e+000	2.402760e-004
8.073107199947757e-004	9.821758e+000	4.154025e-004
8.093107199947758e-004	9.822934e+000	7.590384e-004
8.113107199947758e-004	9.824787e+000	1.092866e-003
8.143107199947759e-004	9.828792e+000	1.572770e-003
8.173107199947760e-004	9.834194e+000	2.024561e-003
8.203107199947760e-004	9.840906e+000	2.445066e-003
8.233107199947761e-004	9.848829e+000	2.831487e-003
8.263107199947762e-004	9.857857e+000	3.181406e-003
8.293107199947762e-004	9.867876e+000	3.492804e-003
8.341678628519192e-004	9.887222e+000	3.906218e-003
8.390250057090622e-004	9.907005e+000	4.212719e-003
8.438821485662051e-004	9.927224e+000	4.412306e-003
8.487392914233482e-004	9.947881e+000	4.504981e-003
8.535964342804911e-004	9.968974e+000	4.490742e-003
8.584535771376341e-004	9.990504e+000	4.369589e-003
8.633107199947771e-004	1.001247e+001	4.141524e-003
8.661678628519200e-004	1.002423e+001	3.966927e-003
8.690250057090629e-004	1.003530e+001	3.771318e-003
8.718821485662058e-004	1.004569e+001	3.554697e-003
8.747392914233488e-004	1.005539e+001	3.317064e-003
8.775964342804917e-004	1.006440e+001	3.058418e-003
8.804535771376347e-004	1.007273e+001	2.778761e-003
8.833107199947776e-004	1.008038e+001	2.478091e-003
8.853107199947776e-004	1.008514e+001	2.262729e-003
8.873107199947777e-004	1.008945e+001	2.044989e-003
8.893107199947777e-004	1.009331e+001	1.824872e-003
8.913107199947778e-004	1.009673e+001	1.602377e-003
8.933107199947778e-004	1.009970e+001	1.377504e-003
8.953107199947779e-004	1.010223e+001	1.150253e-003
8.973107199947779e-004	1.010431e+001	9.206244e-004
8.983107199947779e-004	1.010517e+001	8.069804e-004
8.993107199947779e-004	1.010592e+001	6.939296e-004
9.003107199947780e-004	1.010656e+001	5.814722e-004
9.013107199947780e-004	1.010708e+001	4.696082e-004
9.023107199947780e-004	1.010750e+001	3.583375e-004
9.033107199947780e-004	1.010780e+001	2.476601e-004
9.043107199947781e-004	1.010799e+001	1.375761e-004
9.053107199947781e-004	1.010808e+001	2.871096e-005
9.063107199947781e-004	1.010805e+001	-7.909963e-005
9.073107199947781e-004	1.010792e+001	-1.857590e-004
9.093107199947782e-004	1.010734e+001	-3.952474e-004
9.113107199947782e-004	1.010634e+001	-5.990238e-004
9.143107199947783e-004	1.010410e+001	-8.924717e-004
