time	V(n003)	-I(L1)
0.000000000000000e+000	0.000000e+000	-0.000000e+000
9.999999960041972e-012	-7.500000e+000	2.150000e-007
1.999999992008394e-011	-1.000000e+001	4.199999e-007
1.044405713537449e-006	-9.986476e+000	2.079613e-002
2.088791427074978e-006	-9.952522e+000	4.131023e-002
3.133177140612507e-006	-9.898136e+000	6.154272e-002
4.177562854150036e-006	-9.823319e+000	8.149362e-002
5.221948567687564e-006	-9.728071e+000	1.011629e-001
6.266334281225094e-006	-9.612392e+000	1.205506e-001
7.310719994762620e-006	-9.476282e+000	1.396567e-001
1.031071999476262e-005	-8.977535e+000	1.923846e-001
1.331071999476262e-005	-8.325418e+000	2.418502e-001
1.631071999476262e-005	-7.530240e+000	2.877117e-001
1.931071999476263e-005	-6.603271e+000	3.296693e-001
2.231071999476263e-005	-5.556617e+000	3.674667e-001
2.531071999476263e-005	-4.403087e+000	4.008921e-001
2.731071999476263e-005	-3.581277e+000	4.206625e-001
2.931071999476263e-005	-2.721979e+000	4.383763e-001
3.131071999476263e-005	-1.829336e+000	4.540043e-001
3.331071999476263e-005	-9.075421e-001	4.675257e-001
3.431071999476262e-005	-4.370331e-001	4.734924e-001
3.531071999476262e-005	3.917743e-002	4.789287e-001
3.631071999476262e-005	5.205591e-001	4.838345e-001
3.831071999476261e-005	1.496715e+000	4.920568e-001
3.988214856619118e-005	2.278937e+000	4.969966e-001
4.145357713761975e-005	3.062966e+000	5.006780e-001
4.302500570904832e-005	3.848803e+000	5.031009e-001
4.459643428047689e-005	4.636447e+000	5.042655e-001
4.616786285190545e-005	5.425899e+000	5.041716e-001
4.773929142333402e-005	6.217158e+000	5.028193e-001
4.931071999476258e-005	7.010225e+000	5.002086e-001
5.202500570904829e-005	8.379264e+000	4.925152e-001
5.473929142333400e-005	9.703200e+000	4.819056e-001
5.745357713761971e-005	1.098203e+001	4.683797e-001
6.016786285190541e-005	1.221576e+001	4.519377e-001
6.288214856619111e-005	1.340439e+001	4.325794e-001
6.559643428047683e-005	1.454792e+001	4.103049e-001
6.831071999476253e-005	1.564635e+001	3.851142e-001
7.073929142333395e-005	1.655985e+001	3.607530e-001
7.316786285190538e-005	1.740606e+001	3.353312e-001
7.559643428047680e-005	1.818499e+001	3.088486e-001
7.802500570904822e-005	1.889663e+001	2.813052e-001
8.045357713761965e-005	1.954098e+001	2.527012e-001
8.288214856619106e-005	2.011805e+001	2.230365e-001
8.531071999476248e-005	2.062783e+001	1.923110e-001
8.688214856619105e-005	2.091454e+001	1.723920e-001
8.845357713761961e-005	2.116993e+001	1.524833e-001
9.002500570904819e-005	2.139400e+001	1.325850e-001
9.159643428047676e-005	2.158675e+001	1.126969e-001
9.316786285190532e-005	2.174819e+001	9.281926e-002
9.473929142333389e-005	2.187830e+001	7.295191e-002
9.631071999476245e-005	2.197710e+001	5.309488e-002
9.831071999476245e-005	2.205840e+001	2.824016e-002
9.931071999476244e-005	2.208049e+001	1.594974e-002
1.003107199947624e-004	2.209035e+001	3.765732e-003
1.013107199947624e-004	2.208808e+001	-8.300806e-003
1.023107199947624e-004	2.207381e+001	-2.023904e-002
1.043107199947624e-004	2.200981e+001	-4.368844e-002
1.063107199947624e-004	2.189954e+001	-6.650064e-002
1.093107199947624e-004	2.165037e+001	-9.935546e-002
1.123107199947624e-004	2.130536e+001	-1.303593e-001
1.153107199947624e-004	2.087040e+001	-1.592922e-001
1.183107199947624e-004	2.035200e+001	-1.859590e-001
1.213107199947624e-004	1.975722e+001	-2.101906e-001
1.243107199947624e-004	1.909358e+001	-2.318441e-001
1.273107199947624e-004	1.836900e+001	-2.508041e-001
1.305964342804767e-004	1.748705e+001	-2.683316e-001
1.338821485661909e-004	1.658118e+001	-2.824540e-001
1.371678628519052e-004	1.565138e+001	-2.931715e-001
1.404535771376195e-004	1.469764e+001	-3.004839e-001
1.437392914233338e-004	1.371998e+001	-3.043913e-001
1.470250057090480e-004	1.271838e+001	-3.048937e-001
1.503107199947623e-004	1.169286e+001	-3.019911e-001
1.533107199947623e-004	1.077805e+001	-2.963185e-001
1.563107199947623e-004	9.899375e+000	-2.885717e-001
1.593107199947623e-004	9.056829e+000	-2.787508e-001
1.623107199947623e-004	8.250412e+000	-2.668558e-001
1.653107199947623e-004	7.480125e+000	-2.528867e-001
1.683107199947623e-004	6.745968e+000	-2.368434e-001
1.713107199947623e-004	6.047940e+000	-2.187261e-001
1.735964342804765e-004	5.561319e+000	-2.040591e-001
1.758821485661908e-004	5.111767e+000	-1.889026e-001
1.781678628519051e-004	4.699285e+000	-1.732566e-001
1.804535771376194e-004	4.323874e+000	-1.571210e-001
1.827392914233337e-004	3.985532e+000	-1.404959e-001
1.850250057090479e-004	3.684260e+000	-1.233812e-001
1.873107199947622e-004	3.420058e+000	-1.057770e-001
1.903107199947622e-004	3.137205e+000	-8.276872e-002
1.923107199947622e-004	2.987049e+000	-6.738742e-002
1.943107199947622e-004	2.867627e+000	-5.204391e-002
1.963107199947622e-004	2.778800e+000	-3.679818e-002
1.983107199947622e-004	2.720317e+000	-2.170863e-002
2.003107199947622e-004	2.691806e+000	-6.831897e-003
2.013107199947622e-004	2.688645e+000	5.094919e-004
2.023107199947622e-004	2.692788e+000	7.777337e-003
2.033107199947622e-004	2.704159e+000	1.496514e-002
2.053107199947622e-004	2.748246e+000	2.907535e-002
2.073107199947622e-004	2.820165e+000	4.279111e-002
2.103107199947621e-004	2.978375e+000	6.252419e-002
2.133107199947621e-004	3.194110e+000	8.112030e-002
2.163107199947621e-004	3.463758e+000	9.844831e-002
2.193107199947621e-004	3.783338e+000	1.143922e-001
2.223107199947621e-004	4.148543e+000	1.288516e-001
2.253107199947621e-004	4.554791e+000	1.417423e-001
2.281678628519050e-004	4.986656e+000	1.525250e-001
2.310250057090478e-004	5.435901e+000	1.617400e-001
2.338821485661907e-004	5.902528e+000	1.693872e-001
2.367392914233335e-004	6.386536e+000	1.754665e-001
2.395964342804764e-004	6.887926e+000	1.799781e-001
2.424535771376193e-004	7.406697e+000	1.829218e-001
2.453107199947621e-004	7.942849e+000	1.842978e-001
2.487392914233336e-004	8.590746e+000	1.836283e-001
2.521678628519051e-004	9.217349e+000	1.811510e-001
2.555964342804766e-004	9.822658e+000	1.768658e-001
2.590250057090482e-004	1.040667e+001	1.707728e-001
2.624535771376197e-004	1.096939e+001	1.628719e-001
2.658821485661912e-004	1.151082e+001	1.531631e-001
2.693107199947627e-004	1.203095e+001	1.416465e-001
2.717392914233342e-004	1.236710e+001	1.327973e-001
2.741678628519057e-004	1.267874e+001	1.235535e-001
2.765964342804771e-004	1.296587e+001	1.139150e-001
2.790250057090487e-004	1.322848e+001	1.038819e-001
2.814535771376201e-004	1.346659e+001	9.345415e-002
2.838821485661916e-004	1.368018e+001	8.263173e-002
2.863107199947631e-004	1.386927e+001	7.141465e-002
2.880250057090489e-004	1.398495e+001	6.346587e-002
2.897392914233346e-004	1.408701e+001	5.552505e-002
2.914535771376204e-004	1.417544e+001	4.759219e-002
2.931678628519061e-004	1.425027e+001	3.966730e-002
2.948821485661919e-004	1.431147e+001	3.175037e-002
2.965964342804776e-004	1.435905e+001	2.384140e-002
2.983107199947634e-004	1.439301e+001	1.594039e-002
3.003107199947634e-004	1.441584e+001	6.901016e-003
3.013107199947635e-004	1.442051e+001	2.436155e-003
3.023107199947635e-004	1.442073e+001	-1.986710e-003
3.033107199947635e-004	1.441656e+001	-6.363597e-003
3.043107199947635e-004	1.440803e+001	-1.069061e-002
3.063107199947636e-004	1.437813e+001	-1.917987e-002
3.083107199947636e-004	1.433149e+001	-2.742513e-002
3.113107199947637e-004	1.423129e+001	-3.927514e-002
3.143107199947638e-004	1.409658e+001	-5.042708e-002
3.173107199947639e-004	1.392955e+001	-6.080277e-002
3.203107199947639e-004	1.373265e+001	-7.033324e-002
3.233107199947640e-004	1.350851e+001	-7.895906e-002
3.263107199947641e-004	1.325991e+001	-8.663054e-002
3.305964342804784e-004	1.284548e+001	-9.580575e-002
3.348821485661929e-004	1.241875e+001	-1.028901e-001
3.391678628519073e-004	1.197973e+001	-1.078836e-001
3.434535771376216e-004	1.152840e+001	-1.107862e-001
3.477392914233361e-004	1.106478e+001	-1.115979e-001
3.520250057090504e-004	1.058885e+001	-1.103188e-001
3.563107199947648e-004	1.010063e+001	-1.069488e-001
3.593107199947649e-004	9.779454e+000	-1.034443e-001
3.623107199947650e-004	9.474854e+000	-9.928613e-002
3.653107199947650e-004	9.186832e+000	-9.447430e-002
3.683107199947651e-004	8.915386e+000	-8.900883e-002
3.713107199947652e-004	8.660518e+000	-8.288970e-002
3.743107199947652e-004	8.422227e+000	-7.611692e-002
3.773107199947653e-004	8.200513e+000	-6.869049e-002
3.794535771376225e-004	8.058499e+000	-6.319467e-002
3.815964342804797e-004	7.928957e+000	-5.759904e-002
3.837392914233369e-004	7.811887e+000	-5.190360e-002
3.858821485661941e-004	7.707287e+000	-4.610836e-002
3.880250057090513e-004	7.615160e+000	-4.021331e-002
3.901678628519085e-004	7.535504e+000	-3.421845e-002
3.923107199947657e-004	7.468319e+000	-2.812379e-002
3.935964342804800e-004	7.434541e+000	-2.449420e-002
3.948821485661943e-004	7.405357e+000	-2.088488e-002
3.961678628519086e-004	7.380768e+000	-1.729583e-002
3.974535771376229e-004	7.360774e+000	-1.372705e-002
3.987392914233372e-004	7.345374e+000	-1.017854e-002
4.000250057090516e-004	7.334568e+000	-6.650294e-003
4.013107199947659e-004	7.328357e+000	-3.142320e-003
4.023107199947659e-004	7.326560e+000	-4.518062e-004
4.033107199947659e-004	7.327440e+000	2.212390e-003
4.043107199947660e-004	7.330970e+000	4.847880e-003
4.063107199947660e-004	7.345858e+000	1.002345e-002
4.083107199947661e-004	7.370957e+000	1.505688e-002
4.113107199947661e-004	7.427083e+000	2.230333e-002
4.143107199947662e-004	7.504343e+000	2.913808e-002
4.173107199947663e-004	7.601426e+000	3.551275e-002
4.203107199947664e-004	7.716888e+000	4.138445e-002
4.233107199947664e-004	7.849163e+000	4.671605e-002
4.263107199947665e-004	7.996581e+000	5.147628e-002
4.310250057090524e-004	8.272761e+000	5.769030e-002
4.357392914233381e-004	8.556630e+000	6.238713e-002
4.404535771376240e-004	8.848188e+000	6.556674e-002
4.451678628519098e-004	9.147435e+000	6.722915e-002
4.498821485661957e-004	9.454371e+000	6.737436e-002
4.545964342804815e-004	9.768997e+000	6.600236e-002
4.593107199947673e-004	1.009131e+001	6.311315e-002
4.621678628519102e-004	1.027097e+001	6.073425e-002
4.650250057090532e-004	1.044088e+001	5.802087e-002
4.678821485661961e-004	1.060102e+001	5.497301e-002
4.707392914233390e-004	1.075142e+001	5.159067e-002
4.735964342804819e-004	1.089205e+001	4.787386e-002
4.764535771376249e-004	1.102293e+001	4.382256e-002
4.793107199947678e-004	1.114405e+001	3.943678e-002
4.814535771376250e-004	1.122529e+001	3.604446e-002
4.835964342804822e-004	1.129891e+001	3.260301e-002
4.857392914233394e-004	1.136492e+001	2.911243e-002
4.878821485661965e-004	1.142330e+001	2.557272e-002
4.900250057090537e-004	1.147407e+001	2.198387e-002
4.921678628519110e-004	1.151723e+001	1.834590e-002
4.943107199947681e-004	1.155276e+001	1.465879e-002
4.954535771376253e-004	1.156838e+001	1.271279e-002
4.965964342804824e-004	1.158181e+001	1.077832e-002
4.977392914233396e-004	1.159305e+001	8.855385e-003
4.988821485661968e-004	1.160210e+001	6.943983e-003
5.000250057090540e-004	1.160897e+001	5.044115e-003
5.011678628519111e-004	1.161365e+001	3.155780e-003
5.023107199947683e-004	1.161614e+001	1.278978e-003
5.033107199947683e-004	1.161661e+001	-3.420851e-004
5.043107199947683e-004	1.161547e+001	-1.946681e-003
5.053107199947684e-004	1.161273e+001	-3.533376e-003
5.073107199947684e-004	1.160254e+001	-6.647497e-003
5.093107199947685e-004	1.158620e+001	-9.673651e-003
5.123107199947685e-004	1.155060e+001	-1.402571e-002
5.153107199947686e-004	1.150232e+001	-1.812492e-002
5.183107199947687e-004	1.144215e+001	-2.194244e-002
5.213107199947688e-004	1.137099e+001	-2.545278e-002
5.243107199947688e-004	1.128978e+001	-2.863391e-002
5.273107199947689e-004	1.119955e+001	-3.146740e-002
5.321678628519118e-004	1.102510e+001	-3.523694e-002
5.370250057090549e-004	1.084656e+001	-3.803863e-002
5.418821485661978e-004	1.066393e+001	-3.987248e-002
5.467392914233408e-004	1.047721e+001	-4.073848e-002
5.515964342804838e-004	1.028641e+001	-4.063664e-002
5.564535771376268e-004	1.009151e+001	-3.956696e-002
5.613107199947697e-004	9.892525e+000	-3.752943e-002
5.641678628519126e-004	9.785959e+000	-3.596308e-002
5.670250057090556e-004	9.685565e+000	-3.420552e-002
5.698821485661985e-004	9.591341e+000	-3.225676e-002
5.727392914233415e-004	9.503290e+000	-3.011679e-002
5.755964342804844e-004	9.421409e+000	-2.778561e-002
5.784535771376273e-004	9.345700e+000	-2.526322e-002
5.813107199947702e-004	9.276162e+000	-2.254962e-002
5.833107199947703e-004	9.232851e+000	-2.060502e-002
5.853107199947703e-004	9.193576e+000	-1.863831e-002
5.873107199947704e-004	9.158337e+000	-1.664949e-002
5.893107199947704e-004	9.127134e+000	-1.463855e-002
5.913107199947705e-004	9.099968e+000	-1.260550e-002
5.933107199947705e-004	9.076838e+000	-1.055034e-002
5.953107199947706e-004	9.057745e+000	-8.473072e-003
5.964535771376278e-004	9.048751e+000	-7.297297e-003
5.975964342804849e-004	9.041077e+000	-6.128972e-003
5.987392914233421e-004	9.034722e+000	-4.968096e-003
5.998821485661992e-004	9.029687e+000	-3.814669e-003
6.010250057090564e-004	9.025971e+000	-2.668692e-003
6.021678628519135e-004	9.023574e+000	-1.530164e-003
6.033107199947708e-004	9.022496e+000	-3.990859e-004
6.043107199947708e-004	9.022586e+000	5.774809e-004
6.053107199947708e-004	9.023646e+000	1.543758e-003
6.073107199947709e-004	9.028639e+000	3.442025e-003
6.093107199947709e-004	9.037376e+000	5.289085e-003
6.123107199947710e-004	9.057265e+000	7.949980e-003
6.153107199947710e-004	9.084919e+000	1.046182e-002
6.183107199947711e-004	9.119861e+000	1.280676e-002
6.213107199947712e-004	9.161566e+000	1.496897e-002
6.243107199947713e-004	9.209467e+000	1.693467e-002
6.273107199947713e-004	9.262955e+000	1.869228e-002
6.303107199947714e-004	9.321391e+000	2.023237e-002
6.348821485662001e-004	9.424453e+000	2.211397e-002
6.394535771376288e-004	9.528980e+000	2.348024e-002
6.440250057090575e-004	9.634974e+000	2.433116e-002
6.485964342804861e-004	9.742433e+000	2.466673e-002
6.531678628519148e-004	9.851359e+000	2.448697e-002
6.577392914233435e-004	9.961751e+000	2.379187e-002
6.623107199947722e-004	1.007361e+001	2.258143e-002
6.651678628519151e-004	1.013768e+001	2.161344e-002
6.680250057090581e-004	1.019798e+001	2.053170e-002
6.708821485662009e-004	1.025451e+001	1.933620e-002
6.737392914233439e-004	1.030726e+001	1.802694e-002
6.765964342804868e-004	1.035623e+001	1.660393e-002
6.794535771376298e-004	1.040143e+001	1.506715e-002
6.823107199947727e-004	1.044285e+001	1.341662e-002
6.843107199947727e-004	1.046859e+001	1.223533e-002
6.863107199947728e-004	1.049189e+001	1.104164e-002
6.883107199947728e-004	1.051274e+001	9.835562e-003
6.903107199947729e-004	1.053115e+001	8.617091e-003
6.923107199947729e-004	1.054710e+001	7.386229e-003
6.943107199947730e-004	1.056062e+001	6.142975e-003
6.963107199947730e-004	1.057169e+001	4.887329e-003
6.973107199947730e-004	1.057626e+001	4.266121e-003
6.983107199947731e-004	1.058021e+001	3.648296e-003
6.993107199947731e-004	1.058356e+001	3.033855e-003
7.003107199947731e-004	1.058629e+001	2.422797e-003
7.013107199947731e-004	1.058842e+001	1.815123e-003
7.023107199947732e-004	1.058993e+001	1.210831e-003
7.033107199947732e-004	1.059083e+001	6.099234e-004
7.043107199947732e-004	1.059114e+001	1.580685e-005
7.053107199947732e-004	1.059087e+001	-5.724147e-004
7.063107199947733e-004	1.059000e+001	-1.154215e-003
7.083107199947733e-004	1.058655e+001	-2.296503e-003
7.103107199947734e-004	1.058084e+001	-3.407085e-003
7.133107199947734e-004	1.056820e+001	-5.005325e-003
7.163107199947735e-004	1.055091e+001	-6.511997e-003
7.193107199947736e-004	1.052924e+001	-7.916463e-003
7.223107199947736e-004	1.050352e+001	-9.209298e-003
7.253107199947737e-004	1.047411e+001	-1.038235e-002
7.283107199947738e-004	1.044136e+001	-1.142877e-002
7.331678628519167e-004	1.037790e+001	-1.282563e-002
7.380250057090598e-004	1.031287e+001	-1.386811e-002
7.428821485662027e-004	1.024625e+001	-1.455621e-002
7.477392914233457e-004	1.017805e+001	-1.488993e-002
7.525964342804887e-004	1.010827e+001	-1.486926e-002
7.574535771376317e-004	1.003692e+001	-1.449422e-002
7.623107199947746e-004	9.963980e+000	-1.376479e-002
7.651678628519175e-004	9.924877e+000	-1.320000e-002
7.680250057090605e-004	9.888014e+000	-1.256458e-002
7.708821485662034e-004	9.853391e+000	-1.185854e-002
7.737392914233464e-004	9.821008e+000	-1.108188e-002
7.765964342804892e-004	9.790865e+000	-1.023460e-002
7.794535771376322e-004	9.762962e+000	-9.316701e-003
7.823107199947751e-004	9.737299e+000	-8.328179e-003
7.843107199947752e-004	9.721292e+000	-7.619220e-003
7.863107199947752e-004	9.706759e+000	-6.901805e-003
7.883107199947753e-004	9.693700e+000	-6.175932e-003
7.903107199947753e-004	9.682115e+000	-5.441602e-003
7.923107199947753e-004	9.672004e+000	-4.698816e-003
7.943107199947754e-004	9.663367e+000	-3.947572e-003
7.963107199947754e-004	9.656204e+000	-3.187871e-003
7.974535771376327e-004	9.652813e+000	-2.757708e-003
7.985964342804898e-004	9.649905e+000	-2.330160e-003
7.997392914233470e-004	9.647480e+000	-1.905227e-003
8.008821485662041e-004	9.645538e+000	-1.482909e-003
8.020250057090613e-004	9.644080e+000	-1.063206e-003
8.031678628519184e-004	9.643104e+000	-6.461183e-004
8.043107199947756e-004	9.642611e+000	-2.316459e-004
8.053107199947757e-004	9.642558e+000	1.262964e-004
8.063107199947757e-004	9.642862e+000	4.805519e-004
8.073107199947757e-004	9.643517e+000	8.308050e-004
8.093107199947758e-004	9.645868e+000	1.518077e-003
8.113107199947758e-004	9.649575e+000	2.185733e-003
8.143107199947759e-004	9.657583e+000	3.145540e-003
8.173107199947760e-004	9.668388e+000	4.049121e-003
8.203107199947760e-004	9.681812e+000	4.890133e-003
8.233107199947761e-004	9.697658e+000	5.662974e-003
8.263107199947762e-004	9.715714e+000	6.362813e-003
8.293107199947762e-004	9.735753e+000	6.985607e-003
8.341678628519192e-004	9.774445e+000	7.812435e-003
8.390250057090622e-004	9.814010e+000	8.425437e-003
8.438821485662051e-004	9.854449e+000	8.824612e-003
8.487392914233482e-004	9.895762e+000	9.009961e-003
8.535964342804911e-004	9.937948e+000	8.981483e-003
8.584535771376341e-004	9.981008e+000	8.739179e-003
8.633107199947771e-004	1.002494e+001	8.283048e-003
8.661678628519200e-004	1.004846e+001	7.933855e-003
8.690250057090629e-004	1.007060e+001	7.542637e-003
8.718821485662058e-004	1.009137e+001	7.109395e-003
8.747392914233488e-004	1.011077e+001	6.634128e-003
8.775964342804917e-004	1.012881e+001	6.116837e-003
8.804535771376347e-004	1.014547e+001	5.557521e-003
8.833107199947776e-004	1.016076e+001	4.956181e-003
8.853107199947776e-004	1.017027e+001	4.525457e-003
8.873107199947777e-004	1.017890e+001	4.089978e-003
8.893107199947777e-004	1.018663e+001	3.649743e-003
8.913107199947778e-004	1.019346e+001	3.204753e-003
8.933107199947778e-004	1.019940e+001	2.755007e-003
8.953107199947779e-004	1.020445e+001	2.300506e-003
8.973107199947779e-004	1.020861e+001	1.841249e-003
8.983107199947779e-004	1.021033e+001	1.613961e-003
8.993107199947779e-004	1.021184e+001	1.387859e-003
9.003107199947780e-004	1.021311e+001	1.162944e-003
9.013107199947780e-004	1.021417e+001	9.392164e-004
9.023107199947780e-004	1.021500e+001	7.166750e-004
9.033107199947780e-004	1.021560e+001	4.953202e-004
9.043107199947781e-004	1.021598e+001	2.751522e-004
9.053107199947781e-004	1.021615e+001	5.742192e-005
9.063107199947781e-004	1.021610e+001	-1.581993e-004
9.073107199947781e-004	1.021583e+001	-3.715179e-004
9.093107199947782e-004	1.021467e+001	-7.904948e-004
9.113107199947782e-004	1.021268e+001	-1.198048e-003
9.143107199947783e-004	1.020820e+001	-1.784943e-003
9.173107199947784e-004	1.020201e+001	-2.338685e-003
9.203107199947785e-004	1.019421e+001	-2.855346e-003
9.233107199947785e-004	1.018492e+001	-3.331446e-003
9.263107199947786e-004	1.017426e+001	-3.763966e-003
9.293107199947787e-004	1.016238e+001	-4.150363e-003
9.323107199947788e-004	1.014941e+001	-4.488577e-003
